! Touchstone file from project Feb_01st
! Exported from HFSS 3D Layout Design 2018.0.0
! Variables:
!  $F_S = 40um
!  $R_T2 = 172um
!  $R_T3 = 131um
!  $R_diag = 230.54953866228um
!  $R_diag2 = 186.171458450292um
!  $R_diag3 = 141.793378238304um
!  $R_out = 213um
!  $S = 11um
!  $Theta = 22.5deg
!  $W = 30um
# GHZ S RI R 50.000000
! Terminal data exported
! Port[1] = Port1
! Port[2] = Port2
1.5              0.124598584037459 0.283576794113842 0.849103479270714 -0.329231115937246 0.849103479270723 -0.329231115937244 0.124294183102271 0.28442473932812 
! Gamma         0                31.4376753292752 0                0                0                0                0                31.4376753292752 
! Port Impedance50               0                0                0                0                0                50               0                

1.55             0.131431874816172 0.290796307996615 0.842052282885348 -0.337586599714717 0.842052282885348 -0.337586599714715 0.131118773737498 0.291682746110058 
! Gamma         0                32.4855978402511 0                0                0                0                0                32.4855978402511 
! Port Impedance50               0                0                0                0                0                50               0                

1.6              0.138404510601149 0.297837084079765 0.834869162432654 -0.345767194162693 0.834869162432657 -0.345767194162692 0.138082968276995 0.298762459796923 
! Gamma         0                33.5335203512269 0                0                0                0                0                33.5335203512269 
! Port Impedance50               0                0                0                0                0                50               0                

1.65             0.145511375731178 0.304696989861175 0.827558552475323 -0.353770641163056 0.827558552475321 -0.353770641163054 0.145181653756659 0.30566173499454 
! Gamma         0                34.5814428622027 0                0                0                0                0                34.5814428622027 
! Port Impedance50               0                0                0                0                0                50               0                

1.7              0.152747310710169 0.31137403307279 0.820124992946753 -0.361594824575285 0.820124992946752 -0.361594824575285 0.152409672978079 0.31237856788623 
! Gamma         0                35.6293653731786 0                0                0                0                0                35.6293653731786 
! Port Impedance50               0                0                0                0                0                50               0                

1.75             0.160107119587504 0.31786636575339 0.812573115105873 -0.369237777342482 0.812573115105872 -0.369237777342478 0.159761831994939 0.318911100921727 
! Gamma         0                36.6772878841544 0                0                0                0                0                36.6772878841544 
! Port Impedance50               0                0                0                0                0                50               0                

1.8              0.167585577671644 0.324172291277811 0.804907627801563 -0.376697684677372 0.804907627801563 -0.376697684677374 0.167232908087169 0.325257628962831 
! Gamma         0                37.7252103951303 0                0                0                0                0                37.7252103951303 
! Port Impedance50               0                0                0                0                0                50               0                

1.85             0.175177438869651 0.330290266620621 0.797133304781694 -0.383972888072178 0.797133304781697 -0.383972888072173 0.17481765747128 0.331416601806406 
! Gamma         0                38.7731329061061 0                0                0                0                1.97215226305253E-031 38.7731329061061 
! Port Impedance50               0                0                0                0                0                50               0                

1.9              0.182877443734388 0.336218904725816 0.789254972705573 -0.391061888100251 0.789254972705572 -0.391061888100249 0.182510822990957 0.337386626145936 
! Gamma         0                39.821055417082  0                0                0                0                0                39.821055417082  
! Port Impedance50               0                0                0                0                0                50               0                

1.95             0.190680326373045 0.341956976125525 0.781277499692511 -0.397963345808633 0.78127749969251 -0.397963345808636 0.19030714192678 0.343166467084357 
! Gamma         -9.86076131526265E-032 40.8689779280578 0                0                0                0                0                40.8689779280578 
! Port Impedance50               0                0                0                0                0                50               0                

2                0.19858082258311 0.347503409008836 0.773205784581315 -0.404676083871353 0.773205784581318 -0.404676083871357 0.198201352896142 0.348755048261533 
! Gamma         0                41.9169004390336 0                0                0                0                0                41.9169004390336 
! Port Impedance50               0                0                0                0                0                50               0                

2.05             0.206573676159744 0.352857290978741 0.765044746562037 -0.411199085114202 0.765044746562036 -0.411199085114202 0.206188203471467 0.354151453064943 
! Gamma         0                42.9648229500095 0                0                0                0                0                42.9648229500095 
! Port Impedance50               0                0                0                0                0                50               0                

2.1              0.214653646611778 0.358017865436975 0.756799315700222 -0.417531494695611 0.756799315700223 -0.417531494695611 0.214262456992712 0.359354921379689 
! Gamma         0                44.0127454609853 0                0                0                0                0                44.0127454609853 
! Port Impedance50               0                0                0                0                0                50               0                

2.15             0.222815515250094 0.362984533912403 0.748474423696959 -0.423672615188426 0.748474423696958 -0.423672615188423 0.222418899136637 0.364364851499342 
! Gamma         0                45.0606679719612 0                0                0                0                0                45.0606679719612 
! Port Impedance50               0                0                0                0                0                50               0                

2.2              0.231054091973672 0.367756851098646 0.740074995191352 -0.429621908530452 0.740074995191354 -0.429621908530456 0.230652344655343 0.369180795065387 
! Gamma         4.93038065763132E-032 46.108590482937  0                0                0                0                0                46.108590482937  
! Port Impedance50               0                0                0                0                0                50               0                

2.25             0.239364221305373 0.372334524598242 0.731605939951759 -0.435378991516295 0.731605939951756 -0.435378991516298 0.23895764327271 0.373802456915112 
! Gamma         4.93038065763132E-032 47.1565129939128 0                0                0                0                0                47.1565129939128 
! Port Impedance50               0                0                0                0                0                50               0                

2.3              0.247740788477956 0.376717412870402 0.723072144783487 -0.440943633221798 0.723072144783491 -0.440943633221798 0.247329685751266 0.378229692801475 
! Gamma         -4.93038065763132E-032 48.2044355048887 0                0                0                0                0                48.2044355048887 
! Port Impedance50               0                0                0                0                0                50               0                

2.35             0.256178724907109 0.380905520141538 0.714478466800694 -0.446315753848768 0.714478466800692 -0.446315753848765 0.25576340928105 0.382462504360592 
! Gamma         0                49.2523580158645 0                0                0                0                0                49.2523580158645 
! Port Impedance50               0                0                0                0                0                50               0                

2.4              0.264673013573285 0.384898995299916 0.705829726339614 -0.451495419847636 0.705829726339615 -0.451495419847639 0.264253803272558 0.386501037647476 
! Gamma         -4.93038065763132E-032 50.3002805268404 0                0                0                0                0                50.3002805268404 
! Port Impedance50               0                0                0                0                0                50               0                

2.45             0.27321869413596 0.388698127108609 0.697130700925368 -0.456482841233151 0.69713070092537 -0.456482841233153 0.272795913572656 0.390345578912803 
! Gamma         0                51.3482030378162 0                0                0                0                0                51.3482030378162 
! Port Impedance50               0                0                0                0                0                50               0                

2.5              0.28181086756774 0.392303342003328 0.688386119213807 -0.461278366956807 0.688386119213805 -0.461278366956803 0.281384847970643 0.393996551684373 
! Gamma         0                52.396125548792  0                0                0                0                0                52.396125548792  
! Port Impedance50               0                0                0                0                0                50               0                

2.55             0.29044470053353 0.395715198804651 0.679600655671056 -0.465882481861301 0.679600655671058 -0.4658824818613 0.290015780148561 0.39745451177891 
! Gamma         0                53.4440480597679 0                0                0                0                9.86076131526265E-032 53.4440480597679 
! Port Impedance50               0                0                0                0                0                50               0                

2.6              0.299115429784886 0.398934385124836 0.670778925330468 -0.47029580248798 0.670778925330463 -0.470295802487974 0.298683953953248 0.400720143718993 
! Gamma         0                54.4919705707437 0                0                0                0                0                54.4919705707437 
! Port Impedance50               0                0                0                0                0                50               0                

2.65             0.30781836581188 0.401961713711929 0.661925479244198 -0.474519071892323 0.661925479244202 -0.474519071892322 0.307384687234845 0.403794256927415 
! Gamma         -1.97215226305253E-031 55.5398930817196 0                0                0                0                0                55.5398930817196 
! Port Impedance50               0                0                0                0                0                50               0                

2.7              0.316548896731934 0.404798117085669 0.65304480002289 -0.478553156494012 0.653044800022888 -0.478553156494015 0.316113375198246 0.406677780580391 
! Gamma         0                56.5878155926954 0                0                0                0                0                56.5878155926954 
! Port Impedance50               0                0                0                0                0                50               0                

2.75             0.325302490950977 0.407444644022979 0.644141298029291 -0.482399040737709 0.644141298029293 -0.482399040737712 0.32486549401279 0.409371759577108 
! Gamma         3.94430452610506E-031 57.6357381036713 0                0                0                0                0                57.6357381036713 
! Port Impedance50               0                0                0                0                0                50               0                

2.8              0.334074700644797 0.409902455231354 0.635219307643355 -0.486057822078387 0.635219307643358 -0.486057822078383 0.333636603474586 0.411877350698879 
! Gamma         0                58.6836606146471 0                0                0                0                2.46519032881566E-032 58.6836606146471 
! Port Impedance50               0                0                0                0                0                50               0                

2.85             0.342861164709281 0.412172817217875 0.626283083764474 -0.489530708359724 0.626283083764473 -0.489530708359722 0.342422349876458 0.414195816352023 
! Gamma         0                59.7315831256229 0                0                0                0                0                59.7315831256229 
! Port Impedance50               0                0                0                0                0                50               0                

2.9              0.351657610524762 0.41425709957282 0.617336799377738 -0.492819010580911 0.61733679937774 -0.492819010580912 0.351218468138298 0.416328521737274 
! Gamma         0                60.7795056365988 0                0                0                0                0                60.7795056365988 
! Port Impedance50               0                0                0                0                0                50               0                

2.95             0.360459856685302 0.416156769711127 0.608384542243425 -0.495924139484833 0.608384542243428 -0.495924139484833 0.360020784583891 0.418276929609397 
! Gamma         0                61.8274281475746 0                0                0                0                0                61.8274281475746 
! Port Impedance50               0                0                0                0                0                50               0                

3                0.369263814639821 0.417873387319192 0.599430312981384 -0.498847601457061 0.59943031298138 -0.49884760145706 0.368825218263546 0.420042594785416 
! Gamma         0                62.8753506585505 0                0                0                0                9.86076131526265E-032 62.8753506585505 
! Port Impedance50               0                0                0                0                0                50               0                

3.05             0.378065490751722 0.419408601187206 0.590478022718711 -0.501590992458636 0.590478022718703 -0.501590992458637 0.377627782933637 0.421627160897028 
! Gamma         0                63.9232731695263 0                0                0                0                -3.94430452610506E-031 63.9232731695263 
! Port Impedance50               0                0                0                0                0                50               0                

3.1              0.386860987484331 0.420764143618153 0.581531491353155 -0.504155994173305 0.581531491353153 -0.504155994173304 0.386424588307449 0.423032355147634 
! Gamma         0                64.9711956805021 0                0                0                0                0                64.9711956805021 
! Port Impedance50               0                0                0                0                0                50               0                

3.15             0.395646504432407 0.421941826054946 0.57259444600743 -0.506544369469089 0.572594446007432 -0.506544369469089 0.395211841655658 0.424259983118188 
! Gamma         3.94430452610506E-031 66.019118191478  0                0                0                0                0                66.019118191478  
! Port Impedance50               0                0                0                0                0                50               0                

3.2              0.404418339787803 0.42294353512026 0.563670519772975 -0.508757956849787 0.563670519772979 -0.508757956849791 0.403985848185081 0.425311925852598 
! Gamma         0                67.0670407024538 0                0                0                0                0                67.0670407024538 
! Port Impedance50               0                0                0                0                0                50               0                

3.25             0.413172890864535 0.42377122701234 0.554763250388907 -0.510798667273046 0.554763250388902 -0.510798667273044 0.412743012333632 0.426190133549944 
! Gamma         0                68.1149632134297 0                0                0                0                0                68.1149632134297 
! Port Impedance50               0                0                0                0                0                50               0                

3.3              0.421906654823688 0.424426924010181 0.545876079701189 -0.512668478783406 0.545876079701191 -0.51266847878341 0.421479838147875 0.426896622305195 
! Gamma         0                69.1628857244055 0                0                0                0                0                69.1628857244055 
! Port Impedance50               0                0                0                0                0                50               0                

3.35             0.430616228896495 0.424912709893801 0.537012352735893 -0.514369432087133 0.537012352735898 -0.514369432087133 0.430192929608894 0.427433469638731 
! Gamma         0                70.2108082353813 0                0                0                0                0                70.2108082353813 
! Port Impedance50               0                0                0                0                0                50               0                

3.4              0.4392983105077  0.42523072574292 0.528175317533852 -0.51590362646664 0.528175317533852 -0.51590362646664 0.438878991104138 0.427802809798698 
! Gamma         0                71.2587307463572 0                0                0                0                -7.88860905221012E-031 71.2587307463572 
! Port Impedance50               0                0                0                0                0                50               0                

3.45             0.447949697790786 0.425383165154588 0.519368124752342 -0.517273215712057 0.519368124752343 -0.51727321571206 0.447534826902859 0.428006829951569 
! Gamma         -1.97215226305253E-031 72.306653257333  0                0                0                0                0                72.306653257333  
! Port Impedance50               0                0                0                0                0                50               0                

3.5              0.456567289203852 0.42537227105405 0.510593827369658 -0.518480403583362 0.510593827369659 -0.518480403583361 0.45615734184357 0.428047766021627 
! Gamma         1.57772181044202E-030 73.3545757683089 0                0                0                0                0                73.3545757683089 
! Port Impedance50               0                0                0                0                0                50               0                

