! Touchstone file from project Feb_01st
! Exported from HFSS 3D Layout Design 2018.0.0
! Variables:
!  $F_S = 40um
!  $R_T2 = 172um
!  $R_T3 = 131um
!  $R_diag = 230.54953866228um
!  $R_diag2 = 186.171458450292um
!  $R_diag3 = 141.793378238304um
!  $R_out = 213um
!  $S = 11um
!  $Theta = 22.5deg
!  $W = 30um
# GHZ S MA R 50.000000
! Terminal data exported
! Port[1] = Port1
! Port[2] = Port2
1.5              0.30974280508839 66.2801701715171 0.910697450425176 -21.1932886203739 0.910697450425183 -21.1932886203736 0.310397287834366 66.3945753729522 
! Gamma         0                31.4376753292752 0                0                0                0                0                31.4376753292752 
! Port Impedance50               0                0                0                0                0                50               0                

1.55             0.319118834389567 65.67834968675   0.907202711316148 -21.8463088687388 0.907202711316147 -21.8463088687386 0.31979830706983 65.7948768685733 
! Gamma         0                32.4855978402511 0                0                0                0                0                32.4855978402511 
! Port Impedance50               0                0                0                0                0                50               0                

1.6              0.328424629417284 65.0757673166343 0.903637909198227 -22.4972505422042 0.903637909198229 -22.4972505422041 0.329129022591587 65.1944166604927 
! Gamma         0                33.5335203512269 0                0                0                0                0                33.5335203512269 
! Port Impedance50               0                0                0                0                0                50               0                

1.65             0.337659319577649 64.4726821895881 0.90000379128311 -23.1460850067277 0.900003791283107 -23.1460850067276 0.338388547127988 64.5934550159278 
! Gamma         0                34.5814428622027 0                0                0                0                0                34.5814428622027 
! Port Impedance50               0                0                0                0                0                50               0                

1.7              0.346822042842152 63.8693279691422 0.896301188895531 -23.7927827271537 0.89630118889553 -23.7927827271537 0.347576003331555 63.9922266818809 
! Gamma         0                35.6293653731786 0                0                0                0                0                35.6293653731786 
! Port Impedance50               0                0                0                0                0                50               0                

1.75             0.355911950094227 63.265916262629  0.892531009886871 -24.4373136576658 0.892531009886869 -24.4373136576656 0.356690528684863 63.390944341763  
! Gamma         0                36.6772878841544 0                0                0                0                0                36.6772878841544 
! Port Impedance50               0                0                0                0                0                50               0                

1.8              0.364928212496437 62.6626396795713 0.888694230280827 -25.0796474437874 0.888694230280829 -25.0796474437875 0.365731282153734 62.789801589523  
! Gamma         0                37.7252103951303 0                0                0                0                0                37.7252103951303 
! Port Impedance50               0                0                0                0                0                50               0                

1.85             0.373870024625205 62.0596741842152 0.884791887602206 -25.7197536919416 0.884791887602206 -25.7197536919413 0.374697447705014 62.1889752716522 
! Gamma         0                38.7731329061061 0                0                0                0                1.97215226305253E-031 38.7731329061061 
! Port Impedance50               0                0                0                0                0                50               0                

1.9              0.382736608285452 61.4571810259354 0.880825074725401 -26.3576021923583 0.8808250747254  -26.3576021923582 0.383588237581621 61.5886274598481 
! Gamma         0                39.821055417082  0                0                0                0                0                39.821055417082  
! Port Impedance50               0                0                0                0                0                50               0                

1.95             0.391527215384376 60.8553085025385 0.876794933911563 -26.9931630855658 0.876794933911564 -26.993163085566 0.39240289550346 60.9889071063495 
! Gamma         -9.86076131526265E-032 40.8689779280578 0                0                0                0                0                40.8689779280578 
! Port Impedance50               0                0                0                0                0                50               0                

2                0.400241130283417 60.2541932259163 0.87270265163311 -27.6264070332351 0.872702651633114 -27.6264070332353 0.401140698480926 60.38995149619   
! Gamma         0                41.9169004390336 0                0                0                0                0                41.9169004390336 
! Port Impedance50               0                0                0                0                0                50               0                

2.05             0.40887767300136 59.6539615616964 0.868549452731926 -28.2573052617888 0.868549452731925 -28.2573052617888 0.409800960173108 59.7918874929573 
! Gamma         0                42.9648229500095 0                0                0                0                0                42.9648229500095 
! Port Impedance50               0                0                0                0                0                50               0                

2.1              0.417436198688831 59.0547303491444 0.864336597227651 -28.8858298264969 0.864336597227652 -28.8858298264968 0.418383030244244 59.1948324168836 
! Gamma         0                44.0127454609853 0                0                0                0                0                44.0127454609853 
! Port Impedance50               0                0                0                0                0                50               0                

2.15             0.425916101709914 58.4566081133551 0.860065374136812 -29.5119534880451 0.86006537413681 -29.511953488045 0.426886298329298 58.5988951784533 
! Gamma         0                45.0606679719612 0                0                0                0                0                45.0606679719612 
! Port Impedance50               0                0                0                0                0                50               0                

2.2              0.434316814028389 57.8596955587673 0.855737099112121 -30.1356500026328 0.855737099112125 -30.1356500026329 0.435310192322806 58.0041767857375 
! Gamma         4.93038065763132E-032 46.108590482937  0                0                0                0                0                46.108590482937  
! Port Impedance50               0                0                0                0                0                50               0                

2.25             0.442637807523178 57.2640863857669 0.851353109835421 -30.7568940372221 0.85135310983542 -30.7568940372223 0.443654180724381 57.4107711940447 
! Gamma         4.93038065763132E-032 47.1565129939128 0                0                0                0                0                47.1565129939128 
! Port Impedance50               0                0                0                0                0                50               0                

2.3              0.450878595006958 56.6698678857704 0.846914762086854 -31.3756612346991 0.846914762086857 -31.375661234699 0.451917773461631 56.8187658951697 
! Gamma         -4.93038065763132E-032 48.2044355048887 0                0                0                0                0                48.2044355048887 
! Port Impedance50               0                0                0                0                0                50               0                

2.35             0.459038728615929 56.0771213145464 0.842423427769827 -31.9919283413417 0.842423427769823 -31.9919283413416 0.460100520287515 56.2282423114236 
! Gamma         0                49.2523580158645 0                0                0                0                0                49.2523580158645 
! Port Impedance50               0                0                0                0                0                50               0                

2.4              0.467117801734048 55.485922483329  0.837880490719319 -32.6056731560072 0.837880490719322 -32.6056731560073 0.468202012646878 55.6392763246791 
! Gamma         -4.93038065763132E-032 50.3002805268404 0                0                0                0                0                50.3002805268404 
! Port Impedance50               0                0                0                0                0                50               0                

2.45             0.475115447910399 54.8963420582873 0.833287344505474 -33.2168745928282 0.833287344505477 -33.2168745928282 0.476221882570206 55.0519387136467 
! Gamma         0                51.3482030378162 0                0                0                0                0                51.3482030378162 
! Port Impedance50               0                0                0                0                0                50               0                

2.5              0.483031341867443 54.3084460314688 0.82864538914338 -33.8255126547957 0.828645389143377 -33.8255126547956 0.484159803584146 54.4662954888116 
! Gamma         0                52.396125548792  0                0                0                0                0                52.396125548792  
! Port Impedance50               0                0                0                0                0                50               0                

2.55             0.490865198025911 53.7222959484413 0.823956029223511 -34.4315684923855 0.823956029223511 -34.4315684923853 0.492015489256781 53.8824081899089 
! Gamma         0                53.4440480597679 0                0                0                0                9.86076131526265E-032 53.4440480597679 
! Port Impedance50               0                0                0                0                0                50               0                

2.6              0.498616770646884 53.1379492042617 0.819220671434328 -35.0350244129479 0.81922067143432 -35.0350244129478 0.499788693280787 53.3003341962544 
! Gamma         0                54.4919705707437 0                0                0                0                0                54.4919705707437 
! Port Impedance50               0                0                0                0                0                50               0                

2.65             0.506285853665029 52.5554593604548 0.814440722006343 -35.6358638253532 0.814440722006345 -35.635863825353 0.50747920930224 52.7201270175439 
! Gamma         -1.97215226305253E-031 55.5398930817196 0                0                0                0                0                55.5398930817196 
! Port Impedance50               0                0                0                0                0                50               0                

2.7              0.513872279480327 51.9748762794825 0.809617585300195 -36.2340713153057 0.809617585300196 -36.234071315306 0.515086869563785 52.141836493722  
! Gamma         0                56.5878155926954 0                0                0                0                0                56.5878155926954 
! Port Impedance50               0                0                0                0                0                50               0                

2.75             0.521375918663225 51.3962464571995 0.8047526615871  -36.8296325853306 0.804752661587103 -36.8296325853307 0.522611544782003 51.5655090077042 
! Gamma         3.94430452610506E-031 57.6357381036713 0                0                0                0                0                57.6357381036713 
! Port Impedance50               0                0                0                0                0                50               0                

2.8              0.528796679656371 50.819613186175  0.799847344939326 -37.4225344260489 0.799847344939325 -37.4225344260486 0.530053143747668 50.991187757247  
! Gamma         0                58.6836606146471 0                0                0                0                2.46519032881566E-032 58.6836606146471 
! Port Impedance50               0                0                0                0                0                50               0                

2.85             0.536134506928182 50.2450166100299 0.794903022661703 -38.0127648289272 0.794903022661701 -38.0127648289271 0.537411611317093 50.4189128063505 
! Gamma         0                59.7315831256229 0                0                0                0                0                59.7315831256229 
! Port Impedance50               0                0                0                0                0                50               0                

2.9              0.543389381186705 49.67249407627   0.789921072674921 -38.6003128035829 0.789921072674923 -38.6003128035828 0.544686928770423 49.8487213980336 
! Gamma         0                60.7795056365988 0                0                0                0                0                60.7795056365988 
! Port Impedance50               0                0                0                0                0                50               0                

2.95             0.550561318345185 49.102080199737  0.784902862375029 -39.1851684638346 0.784902862375031 -39.1851684638345 0.551879112828041 49.2806480168262 
! Gamma         0                61.8274281475746 0                0                0                0                0                61.8274281475746 
! Port Impedance50               0                0                0                0                0                50               0                

3                0.557650367732299 48.5338069655984 0.779849748092812 -39.767323024238 0.779849748092809 -39.7673230242382 0.558988213705099 48.7147245223827 
! Gamma         0                62.8753506585505 0                0                0                0                9.86076131526265E-032 62.8753506585505 
! Port Impedance50               0                0                0                0                0                50               0                

3.05             0.564656612506353 47.9677039313649 0.774763072835456 -40.3467687154275 0.774763072835451 -40.3467687154279 0.566014315410364 48.1509803503583 
! Gamma         0                63.9232731695263 0                0                0                0                -3.94430452610506E-031 63.9232731695263 
! Port Impedance50               0                0                0                0                0                50               0                

3.1              0.571580167773576 47.4037983038704 0.769644165765127 -40.9234988069291 0.769644165765125 -40.9234988069291 0.572957534159675 47.5894426067737 
! Gamma         0                64.9711956805021 0                0                0                0                0                64.9711956805021 
! Port Impedance50               0                0                0                0                0                50               0                

3.15             0.578421179629658 46.8421150810839 0.764494341273625 -41.4975075908465 0.764494341273626 -41.4975075908465 0.579818017191862 47.0301361121168 
! Gamma         3.94430452610506E-031 66.019118191478  0                0                0                0                0                66.019118191478  
! Port Impedance50               0                0                0                0                0                50               0                

3.2              0.58517982488868 46.2826771635659 0.759314897469492 -42.0687903031978 0.759314897469498 -42.0687903031978 0.586595942541598 46.4730836633623 
! Gamma         0                67.0670407024538 0                0                0                0                0                67.0670407024538 
! Port Impedance50               0                0                0                0                0                50               0                

3.25             0.591856309072482 45.7255053991063 0.754107116045185 -42.6373431894839 0.75410711604518 -42.6373431894841 0.593291517018034 45.9183059733121 
! Gamma         0                68.1149632134297 0                0                0                0                0                68.1149632134297 
! Port Impedance50               0                0                0                0                0                50               0                

3.3              0.59845086616134 45.1706187304894 0.74887226115542 -43.2031634153859 0.748872261155423 -43.203163415386 0.599904975892635 45.3658218584315 
! Gamma         0                69.1628857244055 0                0                0                0                0                69.1628857244055 
! Port Impedance50               0                0                0                0                0                50               0                

3.35             0.604963757276692 44.6180342811861 0.743611578484748 -43.7662490561664 0.743611578484752 -43.7662490561662 0.606436581723832 44.8156483236011 
! Gamma         0                70.2108082353813 0                0                0                0                0                70.2108082353813 
! Port Impedance50               0                0                0                0                0                50               0                

3.4              0.61139526963395 44.0677674495546 0.73832629497629 -44.3265990713462 0.73832629497629 -44.3265990713462 0.612886623205505 44.2678005995759 
! Gamma         0                71.2587307463572 0                0                0                0                -7.88860905221012E-031 71.2587307463572 
! Port Impedance50               0                0                0                0                0                50               0                

3.45             0.617745715442683 43.5198319169077 0.733017618275207 -44.8842132969313 0.733017618275209 -44.8842132969314 0.61925541400634 43.7222922845641 
! Gamma         -1.97215226305253E-031 72.306653257333  0                0                0                0                0                72.306653257333  
! Port Impedance50               0                0                0                0                0                50               0                

3.5              0.624015431341753 42.974239802363  0.727686735792238 -45.4390924114444 0.727686735792237 -45.4390924114443 0.625543292277918 43.1791353613459 
! Gamma         1.57772181044202E-030 73.3545757683089 0                0                0                0                0                73.3545757683089 
! Port Impedance50               0                0                0                0                0                50               0                

